# MHz S RI R 50
! Multi-band antenna sweep from NanoVNA
! Sample data showing SWR across 80m, 20m, 2m, and 70cm bands
! 80m band (3.5-4.0 MHz) - Good SWR
3.400000 -0.454687 -0.405468
3.450000 -0.445625 -0.396875
3.500000 -0.334687 -0.285468
3.550000 -0.325625 -0.276875
3.600000 -0.315625 -0.266875
3.650000 -0.305625 -0.256875
3.700000 -0.295625 -0.246875
3.750000 -0.285625 -0.236875
3.800000 -0.275625 -0.226875
3.850000 -0.265625 -0.216875
3.900000 -0.255625 -0.206875
3.950000 -0.245625 -0.196875
4.000000 -0.235625 -0.186875
4.050000 -0.325625 -0.276875
! Gap between bands
7.500000 -0.554687 -0.505468
8.000000 -0.564687 -0.515468
10.000000 -0.574687 -0.525468
12.000000 -0.494687 -0.445468
! 20m band (14.0-14.35 MHz) - Excellent SWR
13.900000 -0.389062 -0.357812
14.000000 -0.196875 -0.142187
14.025000 -0.180781 -0.134375
14.050000 -0.164687 -0.126562
14.075000 -0.148593 -0.118750
14.100000 -0.132500 -0.110937
14.125000 -0.116406 -0.103125
14.150000 -0.100312 -0.095312
14.175000 -0.094218 -0.087500
14.200000 -0.088125 -0.079687
14.225000 -0.082031 -0.071875
14.250000 -0.075937 -0.064062
14.275000 -0.069843 -0.056250
14.300000 -0.063750 -0.048437
14.325000 -0.057656 -0.040625
14.350000 -0.151562 -0.132812
14.400000 -0.259375 -0.225000
14.500000 -0.371093 -0.309375
! Gap between bands
20.000000 -0.584687 -0.535468
30.000000 -0.594687 -0.545468
50.000000 -0.604687 -0.555468
100.000000 -0.614687 -0.565468
! 2m band (144-148 MHz) - Fair SWR
143.000000 -0.554687 -0.505468
144.000000 -0.454687 -0.405468
144.500000 -0.424687 -0.385468
145.000000 -0.394687 -0.365468
145.500000 -0.364687 -0.345468
146.000000 -0.334687 -0.325468
146.500000 -0.354687 -0.345468
147.000000 -0.374687 -0.365468
147.500000 -0.394687 -0.385468
148.000000 -0.414687 -0.405468
149.000000 -0.524687 -0.485468
! Gap between bands
200.000000 -0.634687 -0.575468
300.000000 -0.644687 -0.585468
400.000000 -0.654687 -0.595468
! 70cm band (420-450 MHz) - Good to Fair SWR
419.000000 -0.564687 -0.515468
420.000000 -0.364687 -0.315468
425.000000 -0.344687 -0.305468
430.000000 -0.324687 -0.295468
432.000000 -0.314687 -0.285468
435.000000 -0.304687 -0.275468
438.000000 -0.314687 -0.285468
440.000000 -0.324687 -0.295468
442.000000 -0.334687 -0.305468
445.000000 -0.354687 -0.325468
448.000000 -0.384687 -0.355468
450.000000 -0.414687 -0.385468
451.000000 -0.524687 -0.485468
! End of sweep
460.000000 -0.634687 -0.575468
470.000000 -0.644687 -0.585468