# MHz S RI R 50
! 20m band antenna sweep from NanoVNA
! Sample data showing good SWR in 20m band
13.500000 -0.254687 -0.305468
13.600000 -0.265625 -0.296875
13.700000 -0.273437 -0.285156
13.800000 -0.281250 -0.273437
13.900000 -0.289062 -0.257812
14.000000 -0.296875 -0.242187
14.025000 -0.300781 -0.234375
14.050000 -0.304687 -0.226562
14.075000 -0.308593 -0.218750
14.100000 -0.312500 -0.210937
14.125000 -0.316406 -0.203125
14.150000 -0.320312 -0.195312
14.175000 -0.324218 -0.187500
14.200000 -0.328125 -0.179687
14.225000 -0.332031 -0.171875
14.250000 -0.335937 -0.164062
14.275000 -0.339843 -0.156250
14.300000 -0.343750 -0.148437
14.325000 -0.347656 -0.140625
14.350000 -0.351562 -0.132812
14.400000 -0.359375 -0.125000
14.500000 -0.371093 -0.109375